                 * stm32f103 power system test - debug version
                 Transient Analysis  Fri Mar  7 17:48:33  2025
--------------------------------------------------------------------------------
Index   time            v(vdd)          v(vdd_int)      v(vok)          
--------------------------------------------------------------------------------
0	1.0000000e-09	3.3000000e-04	7.0197830e-08	0.0000000e+00	
1	1.0840119e-09	3.5772393e-04	7.6590732e-08	0.0000000e+00	
2	1.2520357e-09	4.1317180e-04	9.0367413e-08	0.0000000e+00	
3	1.5880834e-09	5.2406752e-04	1.2386583e-07	0.0000000e+00	
4	2.2601787e-09	7.4585898e-04	2.1464074e-07	0.0000000e+00	
5	3.6043694e-09	1.1894419e-03	4.9128589e-07	0.0000000e+00	
6	6.2927506e-09	2.0766077e-03	1.4248216e-06	0.0000000e+00	
7	1.1669513e-08	3.8509394e-03	4.8117875e-06	0.0000000e+00	
8	2.2423038e-08	7.3996026e-03	1.7656614e-05	0.0000000e+00	
9	4.3930089e-08	1.4496929e-02	6.7560553e-05	0.0000000e+00	
10	8.6944189e-08	2.8691582e-02	2.6367407e-04	0.0000000e+00	
11	1.0000000e-07	3.3000000e-02	3.4850822e-04	0.0000000e+00	
12	1.0860282e-07	3.5838931e-02	4.1335074e-04	0.0000000e+00	
13	1.2580846e-07	4.1516792e-02	5.5317254e-04	0.0000000e+00	
14	1.6021974e-07	5.2872514e-02	8.9341483e-04	0.0000000e+00	
15	2.2904230e-07	7.5583959e-02	1.8140919e-03	0.0000000e+00	
16	3.2904230e-07	1.0858396e-01	3.7145095e-03	0.0000000e+00	
17	4.2904230e-07	1.4158396e-01	6.2696548e-03	0.0000000e+00	
18	5.2904230e-07	1.7458396e-01	9.4657438e-03	0.0000000e+00	
19	6.2904230e-07	2.0758396e-01	1.3289283e-02	0.0000000e+00	
20	7.2904230e-07	2.4058396e-01	1.7727062e-02	0.0000000e+00	
21	8.2904230e-07	2.7358396e-01	2.2766150e-02	0.0000000e+00	
22	9.2904230e-07	3.0658396e-01	2.8393888e-02	0.0000000e+00	
23	1.0000000e-06	3.3000000e-01	3.2737795e-02	0.0000000e+00	
24	1.0100000e-06	3.3330000e-01	3.3375931e-02	0.0000000e+00	
25	1.0300000e-06	3.3990000e-01	3.4663505e-02	0.0000000e+00	
26	1.0700000e-06	3.5310000e-01	3.7306184e-02	0.0000000e+00	
27	1.1500000e-06	3.7950000e-01	4.2858816e-02	0.0000000e+00	
28	1.2500000e-06	4.1250000e-01	5.0293357e-02	0.0000000e+00	
29	1.3500000e-06	4.4550000e-01	5.8266117e-02	0.0000000e+00	
30	1.4500000e-06	4.7850000e-01	6.6765765e-02	0.0000000e+00	
31	1.5500000e-06	5.1150000e-01	7.5781207e-02	0.0000000e+00	
32	1.6500000e-06	5.4450000e-01	8.5301586e-02	0.0000000e+00	
33	1.7500000e-06	5.7750000e-01	9.5316271e-02	0.0000000e+00	
34	1.8500000e-06	6.1050000e-01	1.0581485e-01	0.0000000e+00	
35	1.9500000e-06	6.4350000e-01	1.1678715e-01	0.0000000e+00	
36	2.0500000e-06	6.7650000e-01	1.2822318e-01	0.0000000e+00	
37	2.1500000e-06	7.0950000e-01	1.4011319e-01	0.0000000e+00	
38	2.2500000e-06	7.4250000e-01	1.5244762e-01	0.0000000e+00	
39	2.3500000e-06	7.7550000e-01	1.6521711e-01	0.0000000e+00	
40	2.4500000e-06	8.0850000e-01	1.7841251e-01	0.0000000e+00	
41	2.5500000e-06	8.4150000e-01	1.9202483e-01	0.0000000e+00	
42	2.6500000e-06	8.7450000e-01	2.0604532e-01	0.0000000e+00	
43	2.7500000e-06	9.0750000e-01	2.2046538e-01	0.0000000e+00	
44	2.8500000e-06	9.4050000e-01	2.3527658e-01	0.0000000e+00	
45	2.9500000e-06	9.7350000e-01	2.5047071e-01	0.0000000e+00	
46	3.0500000e-06	1.0065000e+00	2.6603969e-01	0.0000000e+00	
47	3.1500000e-06	1.0395000e+00	2.8197564e-01	0.0000000e+00	
48	3.2500000e-06	1.0725000e+00	2.9827083e-01	0.0000000e+00	
49	3.3500000e-06	1.1055000e+00	3.1491770e-01	0.0000000e+00	
50	3.4500000e-06	1.1385000e+00	3.3190883e-01	0.0000000e+00	
51	3.5500000e-06	1.1715000e+00	3.4923700e-01	0.0000000e+00	
52	3.6500000e-06	1.2045000e+00	3.6689509e-01	0.0000000e+00	
53	3.7500000e-06	1.2375000e+00	3.8487617e-01	0.0000000e+00	
54	3.8500000e-06	1.2705000e+00	4.0317343e-01	0.0000000e+00	

Index   time            v(vdd)          v(vdd_int)      v(vok)          
--------------------------------------------------------------------------------
55	3.9500000e-06	1.3035000e+00	4.2178022e-01	0.0000000e+00	
56	4.0500000e-06	1.3365000e+00	4.4069002e-01	0.0000000e+00	
57	4.1500000e-06	1.3695000e+00	4.5989645e-01	0.0000000e+00	
58	4.2500000e-06	1.4025000e+00	4.7939327e-01	0.0000000e+00	
59	4.3500000e-06	1.4355000e+00	4.9917436e-01	0.0000000e+00	
60	4.4500000e-06	1.4685000e+00	5.1923374e-01	0.0000000e+00	
61	4.5500000e-06	1.5015000e+00	5.3956555e-01	0.0000000e+00	
62	4.6500000e-06	1.5345000e+00	5.6016405e-01	0.0000000e+00	
63	4.7500000e-06	1.5675000e+00	5.8102363e-01	0.0000000e+00	
64	4.8500000e-06	1.6005000e+00	6.0213880e-01	0.0000000e+00	
65	4.9500000e-06	1.6335000e+00	6.2350417e-01	0.0000000e+00	
66	5.0500000e-06	1.6665000e+00	6.4511448e-01	0.0000000e+00	
67	5.1500000e-06	1.6995000e+00	6.6696456e-01	0.0000000e+00	
68	5.2500000e-06	1.7325000e+00	6.8904937e-01	0.0000000e+00	
69	5.3500000e-06	1.7655000e+00	7.1136398e-01	0.0000000e+00	
70	5.4500000e-06	1.7985000e+00	7.3390353e-01	0.0000000e+00	
71	5.5500000e-06	1.8315000e+00	7.5666330e-01	0.0000000e+00	
72	5.6500000e-06	1.8645000e+00	7.7963865e-01	0.0000000e+00	
73	5.7500000e-06	1.8975000e+00	8.0282504e-01	0.0000000e+00	
74	5.8500000e-06	1.9305000e+00	8.2621802e-01	0.0000000e+00	
75	5.9500000e-06	1.9635000e+00	8.4981325e-01	0.0000000e+00	
76	6.0500000e-06	1.9965000e+00	8.7360648e-01	0.0000000e+00	
77	6.1500000e-06	2.0295000e+00	8.9759352e-01	0.0000000e+00	
78	6.2500000e-06	2.0625000e+00	9.2177031e-01	0.0000000e+00	
79	6.3500000e-06	2.0955000e+00	9.4613284e-01	0.0000000e+00	
80	6.4500000e-06	2.1285000e+00	9.7067721e-01	0.0000000e+00	
81	6.5500000e-06	2.1615000e+00	9.9539959e-01	0.0000000e+00	
82	6.6500000e-06	2.1945000e+00	1.0202962e+00	0.0000000e+00	
83	6.7500000e-06	2.2275000e+00	1.0453635e+00	0.0000000e+00	
84	6.8500000e-06	2.2605000e+00	1.0705977e+00	0.0000000e+00	
85	6.9500000e-06	2.2935000e+00	1.0959954e+00	0.0000000e+00	
86	7.0500000e-06	2.3265000e+00	1.1215532e+00	0.0000000e+00	
87	7.1500000e-06	2.3595000e+00	1.1472676e+00	0.0000000e+00	
88	7.2500000e-06	2.3925000e+00	1.1731354e+00	0.0000000e+00	
89	7.3500000e-06	2.4255000e+00	1.1991534e+00	0.0000000e+00	
90	7.4500000e-06	2.4585000e+00	1.2253183e+00	0.0000000e+00	
91	7.5500000e-06	2.4915000e+00	1.2516271e+00	0.0000000e+00	
92	7.6500000e-06	2.5245000e+00	1.2780768e+00	0.0000000e+00	
93	7.7500000e-06	2.5575000e+00	1.3046644e+00	0.0000000e+00	
94	7.8500000e-06	2.5905000e+00	1.3313870e+00	0.0000000e+00	
95	7.9500000e-06	2.6235000e+00	1.3582417e+00	0.0000000e+00	
96	8.0500000e-06	2.6565000e+00	1.3852258e+00	0.0000000e+00	
97	8.1500000e-06	2.6895000e+00	1.4123365e+00	0.0000000e+00	
98	8.2500000e-06	2.7225000e+00	1.4395713e+00	0.0000000e+00	
99	8.3500000e-06	2.7555000e+00	1.4669273e+00	0.0000000e+00	
100	8.4500000e-06	2.7885000e+00	1.4944022e+00	0.0000000e+00	
101	8.5500000e-06	2.8215000e+00	1.5219935e+00	0.0000000e+00	
102	8.6500000e-06	2.8545000e+00	1.5496985e+00	0.0000000e+00	
103	8.7500000e-06	2.8875000e+00	1.5775151e+00	0.0000000e+00	
104	8.8500000e-06	2.9205000e+00	1.6054407e+00	0.0000000e+00	
105	8.9500000e-06	2.9535000e+00	1.6334732e+00	0.0000000e+00	
106	9.0500000e-06	2.9865000e+00	1.6616103e+00	0.0000000e+00	
107	9.1500000e-06	3.0195000e+00	1.6898497e+00	0.0000000e+00	
108	9.2500000e-06	3.0525000e+00	1.7181894e+00	0.0000000e+00	
109	9.3500000e-06	3.0855000e+00	1.7466271e+00	0.0000000e+00	
110	9.4500000e-06	3.1185000e+00	1.7751609e+00	0.0000000e+00	
111	9.5500000e-06	3.1515000e+00	1.8037887e+00	0.0000000e+00	
112	9.6500000e-06	3.1845000e+00	1.8325086e+00	0.0000000e+00	

Index   time            v(vdd)          v(vdd_int)      v(vok)          
--------------------------------------------------------------------------------
113	9.7500000e-06	3.2175000e+00	1.8613185e+00	0.0000000e+00	
114	9.8500000e-06	3.2505000e+00	1.8902167e+00	0.0000000e+00	
115	9.9500000e-06	3.2835000e+00	1.9192012e+00	0.0000000e+00	
116	1.0000000e-05	3.3000000e+00	1.9337253e+00	0.0000000e+00	
117	1.0010000e-05	3.3000000e+00	1.9366261e+00	0.0000000e+00	
118	1.0030000e-05	3.3000000e+00	1.9424153e+00	0.0000000e+00	
119	1.0070000e-05	3.3000000e+00	1.9539201e+00	0.0000000e+00	
120	1.0150000e-05	3.3000000e+00	1.9766384e+00	0.0000000e+00	
121	1.0250000e-05	3.3000000e+00	2.0044982e+00	0.0000000e+00	
122	1.0350000e-05	3.3000000e+00	2.0317715e+00	0.0000000e+00	
123	1.0450000e-05	3.3000000e+00	2.0584706e+00	0.0000000e+00	
124	1.0550000e-05	3.3000000e+00	2.0846077e+00	0.0000000e+00	
125	1.0650000e-05	3.3000000e+00	2.1101944e+00	0.0000000e+00	
126	1.0750000e-05	3.3000000e+00	2.1352425e+00	0.0000000e+00	
127	1.0850000e-05	3.3000000e+00	2.1597633e+00	0.0000000e+00	
128	1.0950000e-05	3.3000000e+00	2.1837678e+00	0.0000000e+00	
129	1.1050000e-05	3.3000000e+00	2.2072670e+00	0.0000000e+00	
130	1.1150000e-05	3.3000000e+00	2.2302714e+00	0.0000000e+00	
131	1.1250000e-05	3.3000000e+00	2.2527915e+00	0.0000000e+00	
132	1.1350000e-05	3.3000000e+00	2.2748375e+00	0.0000000e+00	
133	1.1450000e-05	3.3000000e+00	2.2964194e+00	0.0000000e+00	
134	1.1550000e-05	3.3000000e+00	2.3175470e+00	0.0000000e+00	
135	1.1650000e-05	3.3000000e+00	2.3382297e+00	0.0000000e+00	
136	1.1750000e-05	3.3000000e+00	2.3584770e+00	0.0000000e+00	
137	1.1850000e-05	3.3000000e+00	2.3782980e+00	0.0000000e+00	
138	1.1950000e-05	3.3000000e+00	2.3977018e+00	0.0000000e+00	
139	1.2050000e-05	3.3000000e+00	2.4166970e+00	0.0000000e+00	
140	1.2150000e-05	3.3000000e+00	2.4352924e+00	0.0000000e+00	
141	1.2250000e-05	3.3000000e+00	2.4534962e+00	0.0000000e+00	
142	1.2350000e-05	3.3000000e+00	2.4713168e+00	0.0000000e+00	
143	1.2450000e-05	3.3000000e+00	2.4887623e+00	0.0000000e+00	
144	1.2550000e-05	3.3000000e+00	2.5058404e+00	0.0000000e+00	
145	1.2650000e-05	3.3000000e+00	2.5225591e+00	0.0000000e+00	
146	1.2750000e-05	3.3000000e+00	2.5389257e+00	0.0000000e+00	
147	1.2850000e-05	3.3000000e+00	2.5549478e+00	0.0000000e+00	
148	1.2950000e-05	3.3000000e+00	2.5706326e+00	0.0000000e+00	
149	1.3050000e-05	3.3000000e+00	2.5859871e+00	0.0000000e+00	
150	1.3150000e-05	3.3000000e+00	2.6010184e+00	0.0000000e+00	
151	1.3250000e-05	3.3000000e+00	2.6157333e+00	0.0000000e+00	
152	1.3350000e-05	3.3000000e+00	2.6301383e+00	0.0000000e+00	
153	1.3450000e-05	3.3000000e+00	2.6442401e+00	0.0000000e+00	
154	1.3550000e-05	3.3000000e+00	2.6580450e+00	0.0000000e+00	
155	1.3650000e-05	3.3000000e+00	2.6715593e+00	0.0000000e+00	
156	1.3750000e-05	3.3000000e+00	2.6847891e+00	0.0000000e+00	
157	1.3850000e-05	3.3000000e+00	2.6977403e+00	0.0000000e+00	
158	1.3950000e-05	3.3000000e+00	2.7104189e+00	3.3000000e+00	
159	1.4020993e-05	3.3000000e+00	2.7192573e+00	3.3000000e+00	
160	1.4085775e-05	3.3000000e+00	2.7272068e+00	3.3000000e+00	
161	1.4168074e-05	3.3000000e+00	2.7371491e+00	3.3000000e+00	
162	1.4268074e-05	3.3000000e+00	2.7489980e+00	3.3000000e+00	
163	1.4368074e-05	3.3000000e+00	2.7605974e+00	3.3000000e+00	
164	1.4468074e-05	3.3000000e+00	2.7719527e+00	3.3000000e+00	
165	1.4568074e-05	3.3000000e+00	2.7830689e+00	3.3000000e+00	
166	1.4668074e-05	3.3000000e+00	2.7939511e+00	3.3000000e+00	
167	1.4768074e-05	3.3000000e+00	2.8046041e+00	3.3000000e+00	
168	1.4868074e-05	3.3000000e+00	2.8150329e+00	3.3000000e+00	
169	1.4968074e-05	3.3000000e+00	2.8252422e+00	3.3000000e+00	
170	1.5068074e-05	3.3000000e+00	2.8352365e+00	3.3000000e+00	

Index   time            v(vdd)          v(vdd_int)      v(vok)          
--------------------------------------------------------------------------------
171	1.5168074e-05	3.3000000e+00	2.8450204e+00	3.3000000e+00	
172	1.5268074e-05	3.3000000e+00	2.8545983e+00	3.3000000e+00	
173	1.5368074e-05	3.3000000e+00	2.8639746e+00	3.3000000e+00	
174	1.5468074e-05	3.3000000e+00	2.8731535e+00	3.3000000e+00	
175	1.5568074e-05	3.3000000e+00	2.8821391e+00	3.3000000e+00	
176	1.5668074e-05	3.3000000e+00	2.8909356e+00	3.3000000e+00	
177	1.5768074e-05	3.3000000e+00	2.8995468e+00	3.3000000e+00	
178	1.5868074e-05	3.3000000e+00	2.9079768e+00	3.3000000e+00	
179	1.5968074e-05	3.3000000e+00	2.9162293e+00	3.3000000e+00	
180	1.6068074e-05	3.3000000e+00	2.9243081e+00	3.3000000e+00	
181	1.6168074e-05	3.3000000e+00	2.9322168e+00	3.3000000e+00	
182	1.6268074e-05	3.3000000e+00	2.9399590e+00	3.3000000e+00	
183	1.6368074e-05	3.3000000e+00	2.9475381e+00	3.3000000e+00	
184	1.6468074e-05	3.3000000e+00	2.9549578e+00	3.3000000e+00	
185	1.6568074e-05	3.3000000e+00	2.9622212e+00	3.3000000e+00	
186	1.6668074e-05	3.3000000e+00	2.9693317e+00	3.3000000e+00	
187	1.6768074e-05	3.3000000e+00	2.9762925e+00	3.3000000e+00	
188	1.6868074e-05	3.3000000e+00	2.9831068e+00	3.3000000e+00	
189	1.6968074e-05	3.3000000e+00	2.9897776e+00	3.3000000e+00	
190	1.7068074e-05	3.3000000e+00	2.9963080e+00	3.3000000e+00	
191	1.7168074e-05	3.3000000e+00	3.0027008e+00	3.3000000e+00	
192	1.7268074e-05	3.3000000e+00	3.0089591e+00	3.3000000e+00	
193	1.7368074e-05	3.3000000e+00	3.0150857e+00	3.3000000e+00	
194	1.7468074e-05	3.3000000e+00	3.0210832e+00	3.3000000e+00	
195	1.7568074e-05	3.3000000e+00	3.0269545e+00	3.3000000e+00	
196	1.7668074e-05	3.3000000e+00	3.0327022e+00	3.3000000e+00	
197	1.7768074e-05	3.3000000e+00	3.0383289e+00	3.3000000e+00	
198	1.7868074e-05	3.3000000e+00	3.0438371e+00	3.3000000e+00	
199	1.7968074e-05	3.3000000e+00	3.0492294e+00	3.3000000e+00	
200	1.8068074e-05	3.3000000e+00	3.0545081e+00	3.3000000e+00	
201	1.8168074e-05	3.3000000e+00	3.0596757e+00	3.3000000e+00	
202	1.8268074e-05	3.3000000e+00	3.0647346e+00	3.3000000e+00	
203	1.8368074e-05	3.3000000e+00	3.0696869e+00	3.3000000e+00	
204	1.8468074e-05	3.3000000e+00	3.0745349e+00	3.3000000e+00	
205	1.8568074e-05	3.3000000e+00	3.0792809e+00	3.3000000e+00	
206	1.8668074e-05	3.3000000e+00	3.0839270e+00	3.3000000e+00	
207	1.8768074e-05	3.3000000e+00	3.0884752e+00	3.3000000e+00	
208	1.8868074e-05	3.3000000e+00	3.0929277e+00	3.3000000e+00	
209	1.8968074e-05	3.3000000e+00	3.0972865e+00	3.3000000e+00	
210	1.9068074e-05	3.3000000e+00	3.1015535e+00	3.3000000e+00	
211	1.9168074e-05	3.3000000e+00	3.1057307e+00	3.3000000e+00	
212	1.9268074e-05	3.3000000e+00	3.1098199e+00	3.3000000e+00	
213	1.9368074e-05	3.3000000e+00	3.1138230e+00	3.3000000e+00	
214	1.9468074e-05	3.3000000e+00	3.1177419e+00	3.3000000e+00	
215	1.9568074e-05	3.3000000e+00	3.1215782e+00	3.3000000e+00	
216	1.9668074e-05	3.3000000e+00	3.1253338e+00	3.3000000e+00	
217	1.9768074e-05	3.3000000e+00	3.1290104e+00	3.3000000e+00	
218	1.9868074e-05	3.3000000e+00	3.1326095e+00	3.3000000e+00	
219	1.9968074e-05	3.3000000e+00	3.1361328e+00	3.3000000e+00	
220	2.0000000e-05	3.3000000e+00	3.1372420e+00	3.3000000e+00	
221	2.0000455e-05	3.3000000e+00	3.1372577e+00	3.3000000e+00	
222	2.0001366e-05	3.3000000e+00	3.1372892e+00	3.3000000e+00	
223	2.0001841e-05	3.3000000e+00	3.1373057e+00	3.3000000e+00	
224	2.0002300e-05	3.3000000e+00	3.1373216e+00	3.3000000e+00	
225	2.0003220e-05	3.3000000e+00	3.1373534e+00	3.3000000e+00	
226	2.0005058e-05	3.3000000e+00	3.1374170e+00	3.3000000e+00	
227	2.0008734e-05	3.3000000e+00	3.1375441e+00	3.3000000e+00	
228	2.0016086e-05	3.3000000e+00	3.1377980e+00	3.3000000e+00	

Index   time            v(vdd)          v(vdd_int)      v(vok)          
--------------------------------------------------------------------------------
229	2.0030791e-05	3.3000000e+00	3.1383046e+00	3.3000000e+00	
230	2.0060201e-05	3.3000000e+00	3.1393130e+00	3.3000000e+00	
231	2.0119021e-05	3.3000000e+00	3.1413111e+00	3.3000000e+00	
232	2.0219021e-05	3.3000000e+00	3.1446512e+00	3.3000000e+00	
233	2.0319021e-05	3.3000000e+00	3.1479211e+00	3.3000000e+00	
234	2.0419021e-05	3.3000000e+00	3.1511221e+00	3.3000000e+00	
235	2.0519021e-05	3.3000000e+00	3.1542557e+00	3.3000000e+00	
236	2.0619021e-05	3.3000000e+00	3.1573233e+00	3.3000000e+00	
237	2.0719021e-05	3.3000000e+00	3.1603264e+00	3.3000000e+00	
238	2.0819021e-05	3.3000000e+00	3.1632662e+00	3.3000000e+00	
239	2.0919021e-05	3.3000000e+00	3.1661442e+00	3.3000000e+00	
240	2.1019021e-05	3.3000000e+00	3.1689615e+00	3.3000000e+00	
241	2.1119021e-05	3.3000000e+00	3.1717195e+00	3.3000000e+00	
242	2.1219021e-05	3.3000000e+00	3.1744195e+00	3.3000000e+00	
243	2.1319021e-05	3.3000000e+00	3.1770626e+00	3.3000000e+00	
244	2.1419021e-05	3.3000000e+00	3.1796501e+00	3.3000000e+00	
245	2.1519021e-05	3.3000000e+00	3.1821831e+00	3.3000000e+00	
246	2.1619021e-05	3.3000000e+00	3.1846628e+00	3.3000000e+00	
247	2.1719021e-05	3.3000000e+00	3.1870903e+00	3.3000000e+00	
248	2.1819021e-05	3.3000000e+00	3.1894667e+00	3.3000000e+00	
249	2.1919021e-05	3.3000000e+00	3.1917930e+00	3.3000000e+00	
250	2.2019021e-05	3.3000000e+00	3.1940704e+00	3.3000000e+00	
251	2.2119021e-05	3.3000000e+00	3.1962998e+00	3.3000000e+00	
252	2.2219021e-05	3.3000000e+00	3.1984823e+00	3.3000000e+00	
253	2.2319021e-05	3.3000000e+00	3.2006189e+00	3.3000000e+00	
254	2.2419021e-05	3.3000000e+00	3.2027104e+00	3.3000000e+00	
255	2.2519021e-05	3.3000000e+00	3.2047579e+00	3.3000000e+00	
256	2.2619021e-05	3.3000000e+00	3.2067624e+00	3.3000000e+00	
257	2.2719021e-05	3.3000000e+00	3.2087246e+00	3.3000000e+00	
258	2.2819021e-05	3.3000000e+00	3.2106455e+00	3.3000000e+00	
259	2.2919021e-05	3.3000000e+00	3.2125260e+00	3.3000000e+00	
260	2.3019021e-05	3.3000000e+00	3.2143669e+00	3.3000000e+00	
261	2.3119021e-05	3.3000000e+00	3.2161690e+00	3.3000000e+00	
262	2.3219021e-05	3.3000000e+00	3.2179332e+00	3.3000000e+00	
263	2.3319021e-05	3.3000000e+00	3.2196602e+00	3.3000000e+00	
264	2.3419021e-05	3.3000000e+00	3.2213509e+00	3.3000000e+00	
265	2.3519021e-05	3.3000000e+00	3.2230060e+00	3.3000000e+00	
266	2.3619021e-05	3.3000000e+00	3.2246262e+00	3.3000000e+00	
267	2.3719021e-05	3.3000000e+00	3.2262124e+00	3.3000000e+00	
268	2.3819021e-05	3.3000000e+00	3.2277651e+00	3.3000000e+00	
269	2.3919021e-05	3.3000000e+00	3.2292852e+00	3.3000000e+00	
270	2.4019021e-05	3.3000000e+00	3.2307732e+00	3.3000000e+00	
271	2.4119021e-05	3.3000000e+00	3.2322299e+00	3.3000000e+00	
272	2.4219021e-05	3.3000000e+00	3.2336560e+00	3.3000000e+00	
273	2.4319021e-05	3.3000000e+00	3.2350520e+00	3.3000000e+00	
274	2.4419021e-05	3.3000000e+00	3.2364187e+00	3.3000000e+00	
275	2.4519021e-05	3.3000000e+00	3.2377566e+00	3.3000000e+00	
276	2.4619021e-05	3.3000000e+00	3.2390663e+00	3.3000000e+00	
277	2.4719021e-05	3.3000000e+00	3.2403484e+00	3.3000000e+00	
278	2.4819021e-05	3.3000000e+00	3.2416035e+00	3.3000000e+00	
279	2.4919021e-05	3.3000000e+00	3.2428323e+00	3.3000000e+00	
280	2.5019021e-05	3.3000000e+00	3.2440351e+00	3.3000000e+00	
281	2.5119021e-05	3.3000000e+00	3.2452126e+00	3.3000000e+00	
282	2.5219021e-05	3.3000000e+00	3.2463654e+00	3.3000000e+00	
283	2.5319021e-05	3.3000000e+00	3.2474938e+00	3.3000000e+00	
284	2.5419021e-05	3.3000000e+00	3.2485985e+00	3.3000000e+00	
285	2.5519021e-05	3.3000000e+00	3.2496800e+00	3.3000000e+00	
286	2.5619021e-05	3.3000000e+00	3.2507387e+00	3.3000000e+00	

Index   time            v(vdd)          v(vdd_int)      v(vok)          
--------------------------------------------------------------------------------
287	2.5719021e-05	3.3000000e+00	3.2517751e+00	3.3000000e+00	
288	2.5819021e-05	3.3000000e+00	3.2527896e+00	3.3000000e+00	
289	2.5919021e-05	3.3000000e+00	3.2537829e+00	3.3000000e+00	
290	2.6019021e-05	3.3000000e+00	3.2547552e+00	3.3000000e+00	
291	2.6119021e-05	3.3000000e+00	3.2557070e+00	3.3000000e+00	
292	2.6219021e-05	3.3000000e+00	3.2566388e+00	3.3000000e+00	
293	2.6319021e-05	3.3000000e+00	3.2575510e+00	3.3000000e+00	
294	2.6419021e-05	3.3000000e+00	3.2584440e+00	3.3000000e+00	
295	2.6519021e-05	3.3000000e+00	3.2593181e+00	3.3000000e+00	
296	2.6619021e-05	3.3000000e+00	3.2601739e+00	3.3000000e+00	
297	2.6719021e-05	3.3000000e+00	3.2610117e+00	3.3000000e+00	
298	2.6819021e-05	3.3000000e+00	3.2618318e+00	3.3000000e+00	
299	2.6919021e-05	3.3000000e+00	3.2626347e+00	3.3000000e+00	
300	2.7019021e-05	3.3000000e+00	3.2634206e+00	3.3000000e+00	
301	2.7119021e-05	3.3000000e+00	3.2641900e+00	3.3000000e+00	
302	2.7219021e-05	3.3000000e+00	3.2649432e+00	3.3000000e+00	
303	2.7319021e-05	3.3000000e+00	3.2656806e+00	3.3000000e+00	
304	2.7419021e-05	3.3000000e+00	3.2664024e+00	3.3000000e+00	
305	2.7519021e-05	3.3000000e+00	3.2671090e+00	3.3000000e+00	
306	2.7619021e-05	3.3000000e+00	3.2678008e+00	3.3000000e+00	
307	2.7719021e-05	3.3000000e+00	3.2684780e+00	3.3000000e+00	
308	2.7819021e-05	3.3000000e+00	3.2691409e+00	3.3000000e+00	
309	2.7919021e-05	3.3000000e+00	3.2697899e+00	3.3000000e+00	
