 time           time           time           v(vdd)         time           v(vdd_int)     time           v(vok)         time           v(por_n)       time           i(v1)          time           v(vdda_int)   
 1.0000000e-09  1.0000000e-09  1.0000000e-09  3.3000000e-04  1.0000000e-09  7.0197830e-08  1.0000000e-09  0.0000000e+00  1.0000000e-09  0.0000000e+00  1.0000000e-09 -2.7992980e-04  1.0000000e-09  7.0197830e-04 
 1.0840119e-09  1.0840119e-09  1.0840119e-09  3.5772393e-04  1.0840119e-09  7.6590732e-08  1.0840119e-09  0.0000000e+00  1.0840119e-09  0.0000000e+00  1.0840119e-09 -3.0344675e-04  1.0840119e-09  7.6095179e-04 
 1.2520357e-09  1.2520357e-09  1.2520357e-09  4.1317180e-04  1.2520357e-09  9.0367413e-08  1.2520357e-09  0.0000000e+00  1.2520357e-09  0.0000000e+00  1.2520357e-09 -3.5047964e-04  1.2520357e-09  8.7889665e-04 
 1.5880834e-09  1.5880834e-09  1.5880834e-09  5.2406752e-04  1.5880834e-09  1.2386583e-07  1.5880834e-09  0.0000000e+00  1.5880834e-09  0.0000000e+00  1.5880834e-09 -4.4453949e-04  1.5880834e-09  1.1147737e-03 
 2.2601787e-09  2.2601787e-09  2.2601787e-09  7.4585898e-04  2.2601787e-09  2.1464074e-07  2.2601787e-09  0.0000000e+00  2.2601787e-09  0.0000000e+00  2.2601787e-09 -6.3263540e-04  2.2601787e-09  1.5864773e-03 
 3.6043694e-09  3.6043694e-09  3.6043694e-09  1.1894419e-03  3.6043694e-09  4.9128589e-07  3.6043694e-09  0.0000000e+00  3.6043694e-09  0.0000000e+00  3.6043694e-09 -1.0087321e-03  3.6043694e-09  2.5296821e-03 
 6.2927506e-09  6.2927506e-09  6.2927506e-09  2.0766077e-03  6.2927506e-09  1.4248216e-06  6.2927506e-09  0.0000000e+00  6.2927506e-09  0.0000000e+00  6.2927506e-09 -1.7605454e-03  6.2927506e-09  4.4152827e-03 
 1.1669513e-08  1.1669513e-08  1.1669513e-08  3.8509394e-03  1.1669513e-08  4.8117875e-06  1.1669513e-08  0.0000000e+00  1.1669513e-08  0.0000000e+00  1.1669513e-08 -3.2626519e-03  1.1669513e-08  8.1832500e-03 
 2.2423038e-08  2.2423038e-08  2.2423038e-08  7.3996026e-03  2.2423038e-08  1.7656614e-05  2.2423038e-08  0.0000000e+00  2.2423038e-08  0.0000000e+00  2.2423038e-08 -6.2607941e-03  2.2423038e-08  1.5706268e-02 
 4.3930089e-08  4.3930089e-08  4.3930089e-08  1.4496929e-02  4.3930089e-08  6.7560553e-05  4.3930089e-08  0.0000000e+00  4.3930089e-08  0.0000000e+00  4.3930089e-08 -1.2232864e-02  4.3930089e-08  3.0700783e-02 
 8.6944189e-08  8.6944189e-08  8.6944189e-08  2.8691582e-02  8.6944189e-08  2.6367407e-04  8.6944189e-08  0.0000000e+00  8.6944189e-08  0.0000000e+00  8.6944189e-08 -2.4080699e-02  8.6944189e-08  6.0484906e-02 
 1.0000000e-07  1.0000000e-07  1.0000000e-07  3.3000000e-02  1.0000000e-07  3.4850822e-04  1.0000000e-07  0.0000000e+00  1.0000000e-07  0.0000000e+00  1.0000000e-07 -2.7651492e-02  1.0000000e-07  6.9471252e-02 
 1.0860282e-07  1.0860282e-07  1.0860282e-07  3.5838931e-02  1.0860282e-07  4.1335074e-04  1.0860282e-07  0.0000000e+00  1.0860282e-07  0.0000000e+00  1.0860282e-07 -3.0282200e-02  1.0860282e-07  7.5373565e-02 
 1.2580846e-07  1.2580846e-07  1.2580846e-07  4.1516792e-02  1.2580846e-07  5.5317254e-04  1.2580846e-07  0.0000000e+00  1.2580846e-07  0.0000000e+00  1.2580846e-07 -3.5533478e-02  1.2580846e-07  8.7156625e-02 
 1.6021974e-07  1.6021974e-07  1.6021974e-07  5.2872514e-02  1.6021974e-07  8.9341483e-04  1.6021974e-07  0.0000000e+00  1.6021974e-07  0.0000000e+00  1.6021974e-07 -4.5975437e-02  1.6021974e-07  1.1059381e-01 
 2.2904230e-07  2.2904230e-07  2.2904230e-07  7.5583959e-02  2.2904230e-07  1.8140919e-03  2.2904230e-07  0.0000000e+00  2.2904230e-07  0.0000000e+00  2.2904230e-07 -6.6619163e-02  2.2904230e-07  1.5695713e-01 
 3.2904230e-07  3.2904230e-07  3.2904230e-07  1.0858396e-01  3.2904230e-07  3.7145095e-03  3.2904230e-07  0.0000000e+00  3.2904230e-07  0.0000000e+00  3.2904230e-07 -9.6052078e-02  3.2904230e-07  2.2312641e-01 
 4.2904230e-07  4.2904230e-07  4.2904230e-07  1.4158396e-01  4.2904230e-07  6.2696548e-03  4.2904230e-07  0.0000000e+00  4.2904230e-07  0.0000000e+00  4.2904230e-07 -1.2483027e-01  4.2904230e-07  2.8790264e-01 
 5.2904230e-07  5.2904230e-07  5.2904230e-07  1.7458396e-01  5.2904230e-07  9.4657438e-03  5.2904230e-07  0.0000000e+00  5.2904230e-07  0.0000000e+00  5.2904230e-07 -1.5296751e-01  5.2904230e-07  3.5131515e-01 
 6.2904230e-07  6.2904230e-07  6.2904230e-07  2.0758396e-01  6.2904230e-07  1.3289283e-02  6.2904230e-07  0.0000000e+00  6.2904230e-07  0.0000000e+00  6.2904230e-07 -1.8047731e-01  6.2904230e-07  4.1339265e-01 
 7.2904230e-07  7.2904230e-07  7.2904230e-07  2.4058396e-01  7.2904230e-07  1.7727062e-02  7.2904230e-07  0.0000000e+00  7.2904230e-07  0.0000000e+00  7.2904230e-07 -2.0737286e-01  7.2904230e-07  4.7416323e-01 
 8.2904230e-07  8.2904230e-07  8.2904230e-07  2.7358396e-01  8.2904230e-07  2.2766150e-02  8.2904230e-07  0.0000000e+00  8.2904230e-07  0.0000000e+00  8.2904230e-07 -2.3366710e-01  8.2904230e-07  5.3365443e-01 
 9.2904230e-07  9.2904230e-07  9.2904230e-07  3.0658396e-01  9.2904230e-07  2.8393888e-02  9.2904230e-07  0.0000000e+00  9.2904230e-07  0.0000000e+00  9.2904230e-07 -2.5937270e-01  9.2904230e-07  5.9189316e-01 
 1.0000000e-06  1.0000000e-06  1.0000000e-06  3.3000000e-01  1.0000000e-06  3.2737795e-02  1.0000000e-06  0.0000000e+00  1.0000000e-06  0.0000000e+00  1.0000000e-06 -2.7726220e-01  1.0000000e-06  6.3247208e-01 
 1.0100000e-06  1.0100000e-06  1.0100000e-06  3.3330000e-01  1.0100000e-06  3.3375931e-02  1.0100000e-06  0.0000000e+00  1.0100000e-06  0.0000000e+00  1.0100000e-06 -2.7992962e-01  1.0100000e-06  6.3813561e-01 
 1.0300000e-06  1.0300000e-06  1.0300000e-06  3.3990000e-01  1.0300000e-06  3.4663505e-02  1.0300000e-06  0.0000000e+00  1.0300000e-06  0.0000000e+00  1.0300000e-06 -2.8525316e-01  1.0300000e-06  6.4943861e-01 
 1.0700000e-06  1.0700000e-06  1.0700000e-06  3.5310000e-01  1.0700000e-06  3.7306184e-02  1.0700000e-06  0.0000000e+00  1.0700000e-06  0.0000000e+00  1.0700000e-06 -2.9583270e-01  1.0700000e-06  6.7190094e-01 
 1.1500000e-06  1.1500000e-06  1.1500000e-06  3.7950000e-01  1.1500000e-06  4.2858816e-02  1.1500000e-06  0.0000000e+00  1.1500000e-06  0.0000000e+00  1.1500000e-06 -3.1672452e-01  1.1500000e-06  7.1625693e-01 
 1.2500000e-06  1.2500000e-06  1.2500000e-06  4.1250000e-01  1.2500000e-06  5.0293357e-02  1.2500000e-06  0.0000000e+00  1.2500000e-06  0.0000000e+00  1.2500000e-06 -3.4234553e-01  1.2500000e-06  7.7065136e-01 
 1.3500000e-06  1.3500000e-06  1.3500000e-06  4.4550000e-01  1.3500000e-06  5.8266117e-02  1.3500000e-06  0.0000000e+00  1.3500000e-06  0.0000000e+00  1.3500000e-06 -3.6742833e-01  1.3500000e-06  8.2390064e-01 
 1.4500000e-06  1.4500000e-06  1.4500000e-06  4.7850000e-01  1.4500000e-06  6.6765765e-02  1.4500000e-06  0.0000000e+00  1.4500000e-06  0.0000000e+00  1.4500000e-06 -3.9198424e-01  1.4500000e-06  8.7602887e-01 
 1.5500000e-06  1.5500000e-06  1.5500000e-06  5.1150000e-01  1.5500000e-06  7.5781207e-02  1.5500000e-06  0.0000000e+00  1.5500000e-06  0.0000000e+00  1.5500000e-06 -4.1602435e-01  1.5500000e-06  9.2705965e-01 
 1.6500000e-06  1.6500000e-06  1.6500000e-06  5.4450000e-01  1.6500000e-06  8.5301586e-02  1.6500000e-06  0.0000000e+00  1.6500000e-06  0.0000000e+00  1.6500000e-06 -4.3955953e-01  1.6500000e-06  9.7701609e-01 
 1.7500000e-06  1.7500000e-06  1.7500000e-06  5.7750000e-01  1.7500000e-06  9.5316271e-02  1.7500000e-06  0.0000000e+00  1.7500000e-06  0.0000000e+00  1.7500000e-06 -4.6260040e-01  1.7500000e-06  1.0259208e+00 
 1.8500000e-06  1.8500000e-06  1.8500000e-06  6.1050000e-01  1.8500000e-06  1.0581485e-01  1.8500000e-06  0.0000000e+00  1.8500000e-06  0.0000000e+00  1.8500000e-06 -4.8515737e-01  1.8500000e-06  1.0737959e+00 
 1.9500000e-06  1.9500000e-06  1.9500000e-06  6.4350000e-01  1.9500000e-06  1.1678715e-01  1.9500000e-06  0.0000000e+00  1.9500000e-06  0.0000000e+00  1.9500000e-06 -5.0724063e-01  1.9500000e-06  1.1206632e+00 
 2.0500000e-06  2.0500000e-06  2.0500000e-06  6.7650000e-01  2.0500000e-06  1.2822318e-01  2.0500000e-06  0.0000000e+00  2.0500000e-06  0.0000000e+00  2.0500000e-06 -5.2886015e-01  2.0500000e-06  1.1665437e+00 
 2.1500000e-06  2.1500000e-06  2.1500000e-06  7.0950000e-01  2.1500000e-06  1.4011319e-01  2.1500000e-06  0.0000000e+00  2.1500000e-06  0.0000000e+00  2.1500000e-06 -5.5002570e-01  2.1500000e-06  1.2114583e+00 
 2.2500000e-06  2.2500000e-06  2.2500000e-06  7.4250000e-01  2.2500000e-06  1.5244762e-01  2.2500000e-06  0.0000000e+00  2.2500000e-06  0.0000000e+00  2.2500000e-06 -5.7074682e-01  2.2500000e-06  1.2554273e+00 
 2.3500000e-06  2.3500000e-06  2.3500000e-06  7.7550000e-01  2.3500000e-06  1.6521711e-01  2.3500000e-06  0.0000000e+00  2.3500000e-06  0.0000000e+00  2.3500000e-06 -5.9103289e-01  2.3500000e-06  1.2984707e+00 
 2.4500000e-06  2.4500000e-06  2.4500000e-06  8.0850000e-01  2.4500000e-06  1.7841251e-01  2.4500000e-06  0.0000000e+00  2.4500000e-06  0.0000000e+00  2.4500000e-06 -6.1089305e-01  2.4500000e-06  1.3406079e+00 
 2.5500000e-06  2.5500000e-06  2.5500000e-06  8.4150000e-01  2.5500000e-06  1.9202483e-01  2.5500000e-06  0.0000000e+00  2.5500000e-06  0.0000000e+00  2.5500000e-06 -6.3033628e-01  2.5500000e-06  1.3818580e+00 
 2.6500000e-06  2.6500000e-06  2.6500000e-06  8.7450000e-01  2.6500000e-06  2.0604532e-01  2.6500000e-06  0.0000000e+00  2.6500000e-06  0.0000000e+00  2.6500000e-06 -6.4937134e-01  2.6500000e-06  1.4222396e+00 
 2.7500000e-06  2.7500000e-06  2.7500000e-06  9.0750000e-01  2.7500000e-06  2.2046538e-01  2.7500000e-06  0.0000000e+00  2.7500000e-06  0.0000000e+00  2.7500000e-06 -6.6800685e-01  2.7500000e-06  1.4617711e+00 
 2.8500000e-06  2.8500000e-06  2.8500000e-06  9.4050000e-01  2.8500000e-06  2.3527658e-01  2.8500000e-06  0.0000000e+00  2.8500000e-06  0.0000000e+00  2.8500000e-06 -6.8625119e-01  2.8500000e-06  1.5004703e+00 
 2.9500000e-06  2.9500000e-06  2.9500000e-06  9.7350000e-01  2.9500000e-06  2.5047071e-01  2.9500000e-06  0.0000000e+00  2.9500000e-06  0.0000000e+00  2.9500000e-06 -7.0411262e-01  2.9500000e-06  1.5383549e+00 
 3.0500000e-06  3.0500000e-06  3.0500000e-06  1.0065000e+00  3.0500000e-06  2.6603969e-01  3.0500000e-06  0.0000000e+00  3.0500000e-06  0.0000000e+00  3.0500000e-06 -7.2159920e-01  3.0500000e-06  1.5754418e+00 
 3.1500000e-06  3.1500000e-06  3.1500000e-06  1.0395000e+00  3.1500000e-06  2.8197564e-01  3.1500000e-06  0.0000000e+00  3.1500000e-06  0.0000000e+00  3.1500000e-06 -7.3871880e-01  3.1500000e-06  1.6117480e+00 
 3.2500000e-06  3.2500000e-06  3.2500000e-06  1.0725000e+00  3.2500000e-06  2.9827083e-01  3.2500000e-06  0.0000000e+00  3.2500000e-06  0.0000000e+00  3.2500000e-06 -7.5547917e-01  3.2500000e-06  1.6472898e+00 
 3.3500000e-06  3.3500000e-06  3.3500000e-06  1.1055000e+00  3.3500000e-06  3.1491770e-01  3.3500000e-06  0.0000000e+00  3.3500000e-06  0.0000000e+00  3.3500000e-06 -7.7188786e-01  3.3500000e-06  1.6820833e+00 
 3.4500000e-06  3.4500000e-06  3.4500000e-06  1.1385000e+00  3.4500000e-06  3.3190883e-01  3.4500000e-06  0.0000000e+00  3.4500000e-06  0.0000000e+00  3.4500000e-06 -7.8795228e-01  3.4500000e-06  1.7161444e+00 
 3.5500000e-06  3.5500000e-06  3.5500000e-06  1.1715000e+00  3.5500000e-06  3.4923700e-01  3.5500000e-06  0.0000000e+00  3.5500000e-06  0.0000000e+00  3.5500000e-06 -8.0367967e-01  3.5500000e-06  1.7494883e+00 
 3.6500000e-06  3.6500000e-06  3.6500000e-06  1.2045000e+00  3.6500000e-06  3.6689509e-01  3.6500000e-06  0.0000000e+00  3.6500000e-06  0.0000000e+00  3.6500000e-06 -8.1907713e-01  3.6500000e-06  1.7821303e+00 
 3.7500000e-06  3.7500000e-06  3.7500000e-06  1.2375000e+00  3.7500000e-06  3.8487617e-01  3.7500000e-06  0.0000000e+00  3.7500000e-06  0.0000000e+00  3.7500000e-06 -8.3415161e-01  3.7500000e-06  1.8140851e+00 
 3.8500000e-06  3.8500000e-06  3.8500000e-06  1.2705000e+00  3.8500000e-06  4.0317343e-01  3.8500000e-06  0.0000000e+00  3.8500000e-06  0.0000000e+00  3.8500000e-06 -8.4890991e-01  3.8500000e-06  1.8453671e+00 
 3.9500000e-06  3.9500000e-06  3.9500000e-06  1.3035000e+00  3.9500000e-06  4.2178022e-01  3.9500000e-06  0.0000000e+00  3.9500000e-06  0.0000000e+00  3.9500000e-06 -8.6335867e-01  3.9500000e-06  1.8759906e+00 
 4.0500000e-06  4.0500000e-06  4.0500000e-06  1.3365000e+00  4.0500000e-06  4.4069002e-01  4.0500000e-06  0.0000000e+00  4.0500000e-06  0.0000000e+00  4.0500000e-06 -8.7750443e-01  4.0500000e-06  1.9059693e+00 
 4.1500000e-06  4.1500000e-06  4.1500000e-06  1.3695000e+00  4.1500000e-06  4.5989645e-01  4.1500000e-06  0.0000000e+00  4.1500000e-06  0.0000000e+00  4.1500000e-06 -8.9135355e-01  4.1500000e-06  1.9353169e+00 
 4.2500000e-06  4.2500000e-06  4.2500000e-06  1.4025000e+00  4.2500000e-06  4.7939327e-01  4.2500000e-06  0.0000000e+00  4.2500000e-06  0.0000000e+00  4.2500000e-06 -9.0491229e-01  4.2500000e-06  1.9640467e+00 
 4.3500000e-06  4.3500000e-06  4.3500000e-06  1.4355000e+00  4.3500000e-06  4.9917436e-01  4.3500000e-06  0.0000000e+00  4.3500000e-06  0.0000000e+00  4.3500000e-06 -9.1818675e-01  4.3500000e-06  1.9921716e+00 
 4.4500000e-06  4.4500000e-06  4.4500000e-06  1.4685000e+00  4.4500000e-06  5.1923374e-01  4.4500000e-06  0.0000000e+00  4.4500000e-06  0.0000000e+00  4.4500000e-06 -9.3118293e-01  4.4500000e-06  2.0197044e+00 
 4.5500000e-06  4.5500000e-06  4.5500000e-06  1.5015000e+00  4.5500000e-06  5.3956555e-01  4.5500000e-06  0.0000000e+00  4.5500000e-06  0.0000000e+00  4.5500000e-06 -9.4390668e-01  4.5500000e-06  2.0466576e+00 
 4.6500000e-06  4.6500000e-06  4.6500000e-06  1.5345000e+00  4.6500000e-06  5.6016405e-01  4.6500000e-06  0.0000000e+00  4.6500000e-06  0.0000000e+00  4.6500000e-06 -9.5636373e-01  4.6500000e-06  2.0730433e+00 
 4.7500000e-06  4.7500000e-06  4.7500000e-06  1.5675000e+00  4.7500000e-06  5.8102363e-01  4.7500000e-06  0.0000000e+00  4.7500000e-06  0.0000000e+00  4.7500000e-06 -9.6855970e-01  4.7500000e-06  2.0988735e+00 
 4.8500000e-06  4.8500000e-06  4.8500000e-06  1.6005000e+00  4.8500000e-06  6.0213880e-01  4.8500000e-06  0.0000000e+00  4.8500000e-06  0.0000000e+00  4.8500000e-06 -9.8050009e-01  4.8500000e-06  2.1241599e+00 
 4.9500000e-06  4.9500000e-06  4.9500000e-06  1.6335000e+00  4.9500000e-06  6.2350417e-01  4.9500000e-06  0.0000000e+00  4.9500000e-06  0.0000000e+00  4.9500000e-06 -9.9219027e-01  4.9500000e-06  2.1489140e+00 
 5.0500000e-06  5.0500000e-06  5.0500000e-06  1.6665000e+00  5.0500000e-06  6.4511448e-01  5.0500000e-06  0.0000000e+00  5.0500000e-06  0.0000000e+00  5.0500000e-06 -1.0036355e+00  5.0500000e-06  2.1731470e+00 
 5.1500000e-06  5.1500000e-06  5.1500000e-06  1.6995000e+00  5.1500000e-06  6.6696456e-01  5.1500000e-06  0.0000000e+00  5.1500000e-06  0.0000000e+00  5.1500000e-06 -1.0148410e+00  5.1500000e-06  2.1968697e+00 
 5.2500000e-06  5.2500000e-06  5.2500000e-06  1.7325000e+00  5.2500000e-06  6.8904937e-01  5.2500000e-06  0.0000000e+00  5.2500000e-06  0.0000000e+00  5.2500000e-06 -1.0258117e+00  5.2500000e-06  2.2200931e+00 
 5.3500000e-06  5.3500000e-06  5.3500000e-06  1.7655000e+00  5.3500000e-06  7.1136398e-01  5.3500000e-06  0.0000000e+00  5.3500000e-06  0.0000000e+00  5.3500000e-06 -1.0365527e+00  5.3500000e-06  2.2428275e+00 
 5.4500000e-06  5.4500000e-06  5.4500000e-06  1.7985000e+00  5.4500000e-06  7.3390353e-01  5.4500000e-06  0.0000000e+00  5.4500000e-06  0.0000000e+00  5.4500000e-06 -1.0470687e+00  5.4500000e-06  2.2650833e+00 
 5.5500000e-06  5.5500000e-06  5.5500000e-06  1.8315000e+00  5.5500000e-06  7.5666330e-01  5.5500000e-06  0.0000000e+00  5.5500000e-06  0.0000000e+00  5.5500000e-06 -1.0573645e+00  5.5500000e-06  2.2868705e+00 
 5.6500000e-06  5.6500000e-06  5.6500000e-06  1.8645000e+00  5.6500000e-06  7.7963865e-01  5.6500000e-06  0.0000000e+00  5.6500000e-06  0.0000000e+00  5.6500000e-06 -1.0674447e+00  5.6500000e-06  2.3081991e+00 
 5.7500000e-06  5.7500000e-06  5.7500000e-06  1.8975000e+00  5.7500000e-06  8.0282504e-01  5.7500000e-06  0.0000000e+00  5.7500000e-06  0.0000000e+00  5.7500000e-06 -1.0773139e+00  5.7500000e-06  2.3290786e+00 
 5.8500000e-06  5.8500000e-06  5.8500000e-06  1.9305000e+00  5.8500000e-06  8.2621802e-01  5.8500000e-06  0.0000000e+00  5.8500000e-06  0.0000000e+00  5.8500000e-06 -1.0869764e+00  5.8500000e-06  2.3495185e+00 
 5.9500000e-06  5.9500000e-06  5.9500000e-06  1.9635000e+00  5.9500000e-06  8.4981325e-01  5.9500000e-06  0.0000000e+00  5.9500000e-06  0.0000000e+00  5.9500000e-06 -1.0964367e+00  5.9500000e-06  2.3695282e+00 
 6.0500000e-06  6.0500000e-06  6.0500000e-06  1.9965000e+00  6.0500000e-06  8.7360648e-01  6.0500000e-06  0.0000000e+00  6.0500000e-06  0.0000000e+00  6.0500000e-06 -1.1056991e+00  6.0500000e-06  2.3891166e+00 
 6.1500000e-06  6.1500000e-06  6.1500000e-06  2.0295000e+00  6.1500000e-06  8.9759352e-01  6.1500000e-06  0.0000000e+00  6.1500000e-06  0.0000000e+00  6.1500000e-06 -1.1147676e+00  6.1500000e-06  2.4082926e+00 
 6.2500000e-06  6.2500000e-06  6.2500000e-06  2.0625000e+00  6.2500000e-06  9.2177031e-01  6.2500000e-06  0.0000000e+00  6.2500000e-06  0.0000000e+00  6.2500000e-06 -1.1236464e+00  6.2500000e-06  2.4270648e+00 
 6.3500000e-06  6.3500000e-06  6.3500000e-06  2.0955000e+00  6.3500000e-06  9.4613284e-01  6.3500000e-06  0.0000000e+00  6.3500000e-06  0.0000000e+00  6.3500000e-06 -1.1323394e+00  6.3500000e-06  2.4454419e+00 
 6.4500000e-06  6.4500000e-06  6.4500000e-06  2.1285000e+00  6.4500000e-06  9.7067721e-01  6.4500000e-06  0.0000000e+00  6.4500000e-06  0.0000000e+00  6.4500000e-06 -1.1408506e+00  6.4500000e-06  2.4634321e+00 
 6.5500000e-06  6.5500000e-06  6.5500000e-06  2.1615000e+00  6.5500000e-06  9.9539959e-01  6.5500000e-06  0.0000000e+00  6.5500000e-06  0.0000000e+00  6.5500000e-06 -1.1491837e+00  6.5500000e-06  2.4810435e+00 
 6.6500000e-06  6.6500000e-06  6.6500000e-06  2.1945000e+00  6.6500000e-06  1.0202962e+00  6.6500000e-06  0.0000000e+00  6.6500000e-06  0.0000000e+00  6.6500000e-06 -1.1573427e+00  6.6500000e-06  2.4982842e+00 
 6.7500000e-06  6.7500000e-06  6.7500000e-06  2.2275000e+00  6.7500000e-06  1.0453635e+00  6.7500000e-06  0.0000000e+00  6.7500000e-06  0.0000000e+00  6.7500000e-06 -1.1653310e+00  6.7500000e-06  2.5151619e+00 
 6.8500000e-06  6.8500000e-06  6.8500000e-06  2.2605000e+00  6.8500000e-06  1.0705977e+00  6.8500000e-06  0.0000000e+00  6.8500000e-06  0.0000000e+00  6.8500000e-06 -1.1731523e+00  6.8500000e-06  2.5316843e+00 
 6.9500000e-06  6.9500000e-06  6.9500000e-06  2.2935000e+00  6.9500000e-06  1.0959954e+00  6.9500000e-06  0.0000000e+00  6.9500000e-06  0.0000000e+00  6.9500000e-06 -1.1808101e+00  6.9500000e-06  2.5478588e+00 
 7.0500000e-06  7.0500000e-06  7.0500000e-06  2.3265000e+00  7.0500000e-06  1.1215532e+00  7.0500000e-06  0.0000000e+00  7.0500000e-06  0.0000000e+00  7.0500000e-06 -1.1883079e+00  7.0500000e-06  2.5636928e+00 
 7.1500000e-06  7.1500000e-06  7.1500000e-06  2.3595000e+00  7.1500000e-06  1.1472676e+00  7.1500000e-06  0.0000000e+00  7.1500000e-06  0.0000000e+00  7.1500000e-06 -1.1956491e+00  7.1500000e-06  2.5791935e+00 
 7.2500000e-06  7.2500000e-06  7.2500000e-06  2.3925000e+00  7.2500000e-06  1.1731354e+00  7.2500000e-06  0.0000000e+00  7.2500000e-06  0.0000000e+00  7.2500000e-06 -1.2028368e+00  7.2500000e-06  2.5943678e+00 
 7.3500000e-06  7.3500000e-06  7.3500000e-06  2.4255000e+00  7.3500000e-06  1.1991534e+00  7.3500000e-06  0.0000000e+00  7.3500000e-06  0.0000000e+00  7.3500000e-06 -1.2098744e+00  7.3500000e-06  2.6092227e+00 
 7.4500000e-06  7.4500000e-06  7.4500000e-06  2.4585000e+00  7.4500000e-06  1.2253183e+00  7.4500000e-06  0.0000000e+00  7.4500000e-06  0.0000000e+00  7.4500000e-06 -1.2167650e+00  7.4500000e-06  2.6237648e+00 
 7.5500000e-06  7.5500000e-06  7.5500000e-06  2.4915000e+00  7.5500000e-06  1.2516271e+00  7.5500000e-06  0.0000000e+00  7.5500000e-06  0.0000000e+00  7.5500000e-06 -1.2235118e+00  7.5500000e-06  2.6380008e+00 
 7.6500000e-06  7.6500000e-06  7.6500000e-06  2.5245000e+00  7.6500000e-06  1.2780768e+00  7.6500000e-06  0.0000000e+00  7.6500000e-06  0.0000000e+00  7.6500000e-06 -1.2301176e+00  7.6500000e-06  2.6519370e+00 
