 time            v(VDD)          time            v(VDD_INT)      time            v(VOK)          time            v(POR_n)        time            i(V1)          
 1.00000000e-09  3.30000000e-03  1.00000000e-09  3.30000000e-03  1.00000000e-09  0.00000000e+00  1.00000000e-09  0.00000000e+00  1.00000000e-09 -2.00000000e-05 
 2.00000000e-09  6.60000000e-03  2.00000000e-09  6.60000000e-03  2.00000000e-09  0.00000000e+00  2.00000000e-09  0.00000000e+00  2.00000000e-09 -4.00000000e-05 
 4.00000000e-09  1.32000000e-02  4.00000000e-09  1.32000000e-02  4.00000000e-09  0.00000000e+00  4.00000000e-09  0.00000000e+00  4.00000000e-09 -8.00000000e-05 
 8.00000000e-09  2.64000000e-02  8.00000000e-09  2.64000000e-02  8.00000000e-09  0.00000000e+00  8.00000000e-09  0.00000000e+00  8.00000000e-09 -1.60000000e-04 
 1.60000000e-08  5.28000000e-02  1.60000000e-08  5.28000000e-02  1.60000000e-08  0.00000000e+00  1.60000000e-08  0.00000000e+00  1.60000000e-08 -3.20000000e-04 
 3.20000000e-08  1.05600000e-01  3.20000000e-08  1.05600000e-01  3.20000000e-08  0.00000000e+00  3.20000000e-08  0.00000000e+00  3.20000000e-08 -6.40000000e-04 
 6.40000000e-08  2.11200000e-01  6.40000000e-08  2.11200000e-01  6.40000000e-08  0.00000000e+00  6.40000000e-08  0.00000000e+00  6.40000000e-08 -1.28000000e-03 
 1.00000000e-07  3.30000000e-01  1.00000000e-07  3.30000000e-01  1.00000000e-07  0.00000000e+00  1.00000000e-07  0.00000000e+00  1.00000000e-07 -2.00000000e-03 
 1.06400000e-07  3.51120000e-01  1.06400000e-07  3.51120000e-01  1.06400000e-07  0.00000000e+00  1.06400000e-07  0.00000000e+00  1.06400000e-07 -2.12800000e-03 
 1.19200000e-07  3.93360000e-01  1.19200000e-07  3.93360000e-01  1.19200000e-07  0.00000000e+00  1.19200000e-07  0.00000000e+00  1.19200000e-07 -2.38400000e-03 
 1.44800000e-07  4.77840000e-01  1.44800000e-07  4.77840000e-01  1.44800000e-07  0.00000000e+00  1.44800000e-07  0.00000000e+00  1.44800000e-07 -2.89600000e-03 
 1.96000000e-07  6.46800000e-01  1.96000000e-07  6.46800000e-01  1.96000000e-07  0.00000000e+00  1.96000000e-07  0.00000000e+00  1.96000000e-07 -3.92000000e-03 
 2.96000000e-07  9.76800000e-01  2.96000000e-07  9.76800000e-01  2.96000000e-07  0.00000000e+00  2.96000000e-07  0.00000000e+00  2.96000000e-07 -5.92000000e-03 
 3.96000000e-07  1.30680000e+00  3.96000000e-07  1.30680000e+00  3.96000000e-07  0.00000000e+00  3.96000000e-07  0.00000000e+00  3.96000000e-07 -7.92000000e-03 
 4.96000000e-07  1.63680000e+00  4.96000000e-07  1.63680000e+00  4.96000000e-07  0.00000000e+00  4.96000000e-07  0.00000000e+00  4.96000000e-07 -9.92000000e-03 
 5.96000000e-07  1.96680000e+00  5.96000000e-07  1.96680000e+00  5.96000000e-07  0.00000000e+00  5.96000000e-07  0.00000000e+00  5.96000000e-07 -1.19200000e-02 
 6.96000000e-07  2.29680000e+00  6.96000000e-07  2.29680000e+00  6.96000000e-07  1.00000000e+00  6.96000000e-07  3.30000000e+00  6.96000000e-07 -1.39200000e-02 
 7.66992957e-07  2.53107676e+00  7.66992957e-07  2.53107676e+00  7.66992957e-07  1.00000000e+00  7.66992957e-07  3.30000000e+00  7.66992957e-07 -1.53398591e-02 
 8.31775042e-07  2.74485764e+00  8.31775042e-07  2.74485764e+00  8.31775042e-07  1.00000000e+00  8.31775042e-07  3.30000000e+00  8.31775042e-07 -1.66355008e-02 
 9.14073684e-07  3.01644316e+00  9.14073684e-07  3.01644316e+00  9.14073684e-07  1.00000000e+00  9.14073684e-07  3.30000000e+00  9.14073684e-07 -1.82814737e-02 
 1.00000000e-06  3.30000000e+00  1.00000000e-06  3.30000000e+00  1.00000000e-06  1.00000000e+00  1.00000000e-06  3.30000000e+00  1.00000000e-06 -2.00000000e-02 
 1.01000000e-06  3.30000000e+00  1.01000000e-06  3.30000000e+00  1.01000000e-06  1.00000000e+00  1.01000000e-06  3.30000000e+00  1.01000000e-06 -2.02000000e-02 
 1.03000000e-06  3.30000000e+00  1.03000000e-06  3.30000000e+00  1.03000000e-06  1.00000000e+00  1.03000000e-06  3.30000000e+00  1.03000000e-06 -2.06000000e-02 
 1.07000000e-06  3.30000000e+00  1.07000000e-06  3.30000000e+00  1.07000000e-06  1.00000000e+00  1.07000000e-06  3.30000000e+00  1.07000000e-06 -2.14000000e-02 
 1.15000000e-06  3.30000000e+00  1.15000000e-06  3.30000000e+00  1.15000000e-06  1.00000000e+00  1.15000000e-06  3.30000000e+00  1.15000000e-06 -2.30000000e-02 
 1.25000000e-06  3.30000000e+00  1.25000000e-06  3.30000000e+00  1.25000000e-06  1.00000000e+00  1.25000000e-06  3.30000000e+00  1.25000000e-06 -2.50000000e-02 
 1.35000000e-06  3.30000000e+00  1.35000000e-06  3.30000000e+00  1.35000000e-06  1.00000000e+00  1.35000000e-06  3.30000000e+00  1.35000000e-06 -2.70000000e-02 
 1.45000000e-06  3.30000000e+00  1.45000000e-06  3.30000000e+00  1.45000000e-06  1.00000000e+00  1.45000000e-06  3.30000000e+00  1.45000000e-06 -2.90000000e-02 
 1.55000000e-06  3.30000000e+00  1.55000000e-06  3.30000000e+00  1.55000000e-06  1.00000000e+00  1.55000000e-06  3.30000000e+00  1.55000000e-06 -3.10000000e-02 
 1.65000000e-06  3.30000000e+00  1.65000000e-06  3.30000000e+00  1.65000000e-06  1.00000000e+00  1.65000000e-06  3.30000000e+00  1.65000000e-06 -3.30000000e-02 
 1.75000000e-06  3.30000000e+00  1.75000000e-06  3.30000000e+00  1.75000000e-06  1.00000000e+00  1.75000000e-06  3.30000000e+00  1.75000000e-06 -3.50000000e-02 
 1.85000000e-06  3.30000000e+00  1.85000000e-06  3.30000000e+00  1.85000000e-06  1.00000000e+00  1.85000000e-06  3.30000000e+00  1.85000000e-06 -3.70000000e-02 
 1.95000000e-06  3.30000000e+00  1.95000000e-06  3.30000000e+00  1.95000000e-06  1.00000000e+00  1.95000000e-06  3.30000000e+00  1.95000000e-06 -3.90000000e-02 
 2.00000000e-06  3.30000000e+00  2.00000000e-06  3.30000000e+00  2.00000000e-06  1.00000000e+00  2.00000000e-06  3.30000000e+00  2.00000000e-06 -4.00000000e-02 
 2.01000000e-06  3.30000000e+00  2.01000000e-06  3.30000000e+00  2.01000000e-06  1.00000000e+00  2.01000000e-06  3.30000000e+00  2.01000000e-06 -3.98000000e-02 
 2.03000000e-06  3.30000000e+00  2.03000000e-06  3.30000000e+00  2.03000000e-06  1.00000000e+00  2.03000000e-06  3.30000000e+00  2.03000000e-06 -3.94000000e-02 
 2.07000000e-06  3.30000000e+00  2.07000000e-06  3.30000000e+00  2.07000000e-06  1.00000000e+00  2.07000000e-06  3.30000000e+00  2.07000000e-06 -3.86000000e-02 
 2.15000000e-06  3.30000000e+00  2.15000000e-06  3.30000000e+00  2.15000000e-06  1.00000000e+00  2.15000000e-06  3.30000000e+00  2.15000000e-06 -3.70000000e-02 
 2.25000000e-06  3.30000000e+00  2.25000000e-06  3.30000000e+00  2.25000000e-06  1.00000000e+00  2.25000000e-06  3.30000000e+00  2.25000000e-06 -3.50000000e-02 
 2.35000000e-06  3.30000000e+00  2.35000000e-06  3.30000000e+00  2.35000000e-06  1.00000000e+00  2.35000000e-06  3.30000000e+00  2.35000000e-06 -3.30000000e-02 
 2.45000000e-06  3.30000000e+00  2.45000000e-06  3.30000000e+00  2.45000000e-06  1.00000000e+00  2.45000000e-06  3.30000000e+00  2.45000000e-06 -3.10000000e-02 
 2.55000000e-06  3.30000000e+00  2.55000000e-06  3.30000000e+00  2.55000000e-06  1.00000000e+00  2.55000000e-06  3.30000000e+00  2.55000000e-06 -2.90000000e-02 
 2.65000000e-06  3.30000000e+00  2.65000000e-06  3.30000000e+00  2.65000000e-06  1.00000000e+00  2.65000000e-06  3.30000000e+00  2.65000000e-06 -2.70000000e-02 
 2.75000000e-06  3.30000000e+00  2.75000000e-06  3.30000000e+00  2.75000000e-06  1.00000000e+00  2.75000000e-06  3.30000000e+00  2.75000000e-06 -2.50000000e-02 
 2.85000000e-06  3.30000000e+00  2.85000000e-06  3.30000000e+00  2.85000000e-06  1.00000000e+00  2.85000000e-06  3.30000000e+00  2.85000000e-06 -2.30000000e-02 
 2.95000000e-06  3.30000000e+00  2.95000000e-06  3.30000000e+00  2.95000000e-06  1.00000000e+00  2.95000000e-06  3.30000000e+00  2.95000000e-06 -2.10000000e-02 
 3.00000000e-06  3.30000000e+00  3.00000000e-06  3.30000000e+00  3.00000000e-06  1.00000000e+00  3.00000000e-06  3.30000000e+00  3.00000000e-06 -2.00000000e-02 
 3.01000000e-06  3.30000000e+00  3.01000000e-06  3.30000000e+00  3.01000000e-06  1.00000000e+00  3.01000000e-06  3.30000000e+00  3.01000000e-06 -2.00000000e-02 
 3.03000000e-06  3.30000000e+00  3.03000000e-06  3.30000000e+00  3.03000000e-06  1.00000000e+00  3.03000000e-06  3.30000000e+00  3.03000000e-06 -2.00000000e-02 
 3.07000000e-06  3.30000000e+00  3.07000000e-06  3.30000000e+00  3.07000000e-06  1.00000000e+00  3.07000000e-06  3.30000000e+00  3.07000000e-06 -2.00000000e-02 
 3.15000000e-06  3.30000000e+00  3.15000000e-06  3.30000000e+00  3.15000000e-06  1.00000000e+00  3.15000000e-06  3.30000000e+00  3.15000000e-06 -2.00000000e-02 
 3.25000000e-06  3.30000000e+00  3.25000000e-06  3.30000000e+00  3.25000000e-06  1.00000000e+00  3.25000000e-06  3.30000000e+00  3.25000000e-06 -2.00000000e-02 
 3.35000000e-06  3.30000000e+00  3.35000000e-06  3.30000000e+00  3.35000000e-06  1.00000000e+00  3.35000000e-06  3.30000000e+00  3.35000000e-06 -2.00000000e-02 
 3.45000000e-06  3.30000000e+00  3.45000000e-06  3.30000000e+00  3.45000000e-06  1.00000000e+00  3.45000000e-06  3.30000000e+00  3.45000000e-06 -2.00000000e-02 
 3.55000000e-06  3.30000000e+00  3.55000000e-06  3.30000000e+00  3.55000000e-06  1.00000000e+00  3.55000000e-06  3.30000000e+00  3.55000000e-06 -2.00000000e-02 
 3.65000000e-06  3.30000000e+00  3.65000000e-06  3.30000000e+00  3.65000000e-06  1.00000000e+00  3.65000000e-06  3.30000000e+00  3.65000000e-06 -2.00000000e-02 
 3.75000000e-06  3.30000000e+00  3.75000000e-06  3.30000000e+00  3.75000000e-06  1.00000000e+00  3.75000000e-06  3.30000000e+00  3.75000000e-06 -2.00000000e-02 
 3.85000000e-06  3.30000000e+00  3.85000000e-06  3.30000000e+00  3.85000000e-06  1.00000000e+00  3.85000000e-06  3.30000000e+00  3.85000000e-06 -2.00000000e-02 
 3.95000000e-06  3.30000000e+00  3.95000000e-06  3.30000000e+00  3.95000000e-06  1.00000000e+00  3.95000000e-06  3.30000000e+00  3.95000000e-06 -2.00000000e-02 
 4.05000000e-06  3.30000000e+00  4.05000000e-06  3.30000000e+00  4.05000000e-06  1.00000000e+00  4.05000000e-06  3.30000000e+00  4.05000000e-06 -2.00000000e-02 
 4.15000000e-06  3.30000000e+00  4.15000000e-06  3.30000000e+00  4.15000000e-06  1.00000000e+00  4.15000000e-06  3.30000000e+00  4.15000000e-06 -2.00000000e-02 
 4.25000000e-06  3.30000000e+00  4.25000000e-06  3.30000000e+00  4.25000000e-06  1.00000000e+00  4.25000000e-06  3.30000000e+00  4.25000000e-06 -2.00000000e-02 
 4.35000000e-06  3.30000000e+00  4.35000000e-06  3.30000000e+00  4.35000000e-06  1.00000000e+00  4.35000000e-06  3.30000000e+00  4.35000000e-06 -2.00000000e-02 
 4.45000000e-06  3.30000000e+00  4.45000000e-06  3.30000000e+00  4.45000000e-06  1.00000000e+00  4.45000000e-06  3.30000000e+00  4.45000000e-06 -2.00000000e-02 
 4.55000000e-06  3.30000000e+00  4.55000000e-06  3.30000000e+00  4.55000000e-06  1.00000000e+00  4.55000000e-06  3.30000000e+00  4.55000000e-06 -2.00000000e-02 
 4.65000000e-06  3.30000000e+00  4.65000000e-06  3.30000000e+00  4.65000000e-06  1.00000000e+00  4.65000000e-06  3.30000000e+00  4.65000000e-06 -2.00000000e-02 
 4.75000000e-06  3.30000000e+00  4.75000000e-06  3.30000000e+00  4.75000000e-06  1.00000000e+00  4.75000000e-06  3.30000000e+00  4.75000000e-06 -2.00000000e-02 
 4.85000000e-06  3.30000000e+00  4.85000000e-06  3.30000000e+00  4.85000000e-06  1.00000000e+00  4.85000000e-06  3.30000000e+00  4.85000000e-06 -2.00000000e-02 
 4.95000000e-06  3.30000000e+00  4.95000000e-06  3.30000000e+00  4.95000000e-06  1.00000000e+00  4.95000000e-06  3.30000000e+00  4.95000000e-06 -2.00000000e-02 
 5.05000000e-06  3.30000000e+00  5.05000000e-06  3.30000000e+00  5.05000000e-06  1.00000000e+00  5.05000000e-06  3.30000000e+00  5.05000000e-06 -2.00000000e-02 
 5.15000000e-06  3.30000000e+00  5.15000000e-06  3.30000000e+00  5.15000000e-06  1.00000000e+00  5.15000000e-06  3.30000000e+00  5.15000000e-06 -2.00000000e-02 
 5.25000000e-06  3.30000000e+00  5.25000000e-06  3.30000000e+00  5.25000000e-06  1.00000000e+00  5.25000000e-06  3.30000000e+00  5.25000000e-06 -2.00000000e-02 
 5.35000000e-06  3.30000000e+00  5.35000000e-06  3.30000000e+00  5.35000000e-06  1.00000000e+00  5.35000000e-06  3.30000000e+00  5.35000000e-06 -2.00000000e-02 
 5.45000000e-06  3.30000000e+00  5.45000000e-06  3.30000000e+00  5.45000000e-06  1.00000000e+00  5.45000000e-06  3.30000000e+00  5.45000000e-06 -2.00000000e-02 
 5.55000000e-06  3.30000000e+00  5.55000000e-06  3.30000000e+00  5.55000000e-06  1.00000000e+00  5.55000000e-06  3.30000000e+00  5.55000000e-06 -2.00000000e-02 
 5.65000000e-06  3.30000000e+00  5.65000000e-06  3.30000000e+00  5.65000000e-06  1.00000000e+00  5.65000000e-06  3.30000000e+00  5.65000000e-06 -2.00000000e-02 
 5.75000000e-06  3.30000000e+00  5.75000000e-06  3.30000000e+00  5.75000000e-06  1.00000000e+00  5.75000000e-06  3.30000000e+00  5.75000000e-06 -2.00000000e-02 
 5.85000000e-06  3.30000000e+00  5.85000000e-06  3.30000000e+00  5.85000000e-06  1.00000000e+00  5.85000000e-06  3.30000000e+00  5.85000000e-06 -2.00000000e-02 
 5.95000000e-06  3.30000000e+00  5.95000000e-06  3.30000000e+00  5.95000000e-06  1.00000000e+00  5.95000000e-06  3.30000000e+00  5.95000000e-06 -2.00000000e-02 
 6.05000000e-06  3.30000000e+00  6.05000000e-06  3.30000000e+00  6.05000000e-06  1.00000000e+00  6.05000000e-06  3.30000000e+00  6.05000000e-06 -2.00000000e-02 
 6.15000000e-06  3.30000000e+00  6.15000000e-06  3.30000000e+00  6.15000000e-06  1.00000000e+00  6.15000000e-06  3.30000000e+00  6.15000000e-06 -2.00000000e-02 
 6.25000000e-06  3.30000000e+00  6.25000000e-06  3.30000000e+00  6.25000000e-06  1.00000000e+00  6.25000000e-06  3.30000000e+00  6.25000000e-06 -2.00000000e-02 
 6.35000000e-06  3.30000000e+00  6.35000000e-06  3.30000000e+00  6.35000000e-06  1.00000000e+00  6.35000000e-06  3.30000000e+00  6.35000000e-06 -2.00000000e-02 
 6.45000000e-06  3.30000000e+00  6.45000000e-06  3.30000000e+00  6.45000000e-06  1.00000000e+00  6.45000000e-06  3.30000000e+00  6.45000000e-06 -2.00000000e-02 
 6.55000000e-06  3.30000000e+00  6.55000000e-06  3.30000000e+00  6.55000000e-06  1.00000000e+00  6.55000000e-06  3.30000000e+00  6.55000000e-06 -2.00000000e-02 
 6.65000000e-06  3.30000000e+00  6.65000000e-06  3.30000000e+00  6.65000000e-06  1.00000000e+00  6.65000000e-06  3.30000000e+00  6.65000000e-06 -2.00000000e-02 
 6.75000000e-06  3.30000000e+00  6.75000000e-06  3.30000000e+00  6.75000000e-06  1.00000000e+00  6.75000000e-06  3.30000000e+00  6.75000000e-06 -2.00000000e-02 
 6.85000000e-06  3.30000000e+00  6.85000000e-06  3.30000000e+00  6.85000000e-06  1.00000000e+00  6.85000000e-06  3.30000000e+00  6.85000000e-06 -2.00000000e-02 
 6.95000000e-06  3.30000000e+00  6.95000000e-06  3.30000000e+00  6.95000000e-06  1.00000000e+00  6.95000000e-06  3.30000000e+00  6.95000000e-06 -2.00000000e-02 
 7.05000000e-06  3.30000000e+00  7.05000000e-06  3.30000000e+00  7.05000000e-06  1.00000000e+00  7.05000000e-06  3.30000000e+00  7.05000000e-06 -2.00000000e-02 
 7.15000000e-06  3.30000000e+00  7.15000000e-06  3.30000000e+00  7.15000000e-06  1.00000000e+00  7.15000000e-06  3.30000000e+00  7.15000000e-06 -2.00000000e-02 
 7.25000000e-06  3.30000000e+00  7.25000000e-06  3.30000000e+00  7.25000000e-06  1.00000000e+00  7.25000000e-06  3.30000000e+00  7.25000000e-06 -2.00000000e-02 
 7.35000000e-06  3.30000000e+00  7.35000000e-06  3.30000000e+00  7.35000000e-06  1.00000000e+00  7.35000000e-06  3.30000000e+00  7.35000000e-06 -2.00000000e-02 
 7.45000000e-06  3.30000000e+00  7.45000000e-06  3.30000000e+00  7.45000000e-06  1.00000000e+00  7.45000000e-06  3.30000000e+00  7.45000000e-06 -2.00000000e-02 
 7.55000000e-06  3.30000000e+00  7.55000000e-06  3.30000000e+00  7.55000000e-06  1.00000000e+00  7.55000000e-06  3.30000000e+00  7.55000000e-06 -2.00000000e-02 
 7.65000000e-06  3.30000000e+00  7.65000000e-06  3.30000000e+00  7.65000000e-06  1.00000000e+00  7.65000000e-06  3.30000000e+00  7.65000000e-06 -2.00000000e-02 
 7.75000000e-06  3.30000000e+00  7.75000000e-06  3.30000000e+00  7.75000000e-06  1.00000000e+00  7.75000000e-06  3.30000000e+00  7.75000000e-06 -2.00000000e-02 
 7.85000000e-06  3.30000000e+00  7.85000000e-06  3.30000000e+00  7.85000000e-06  1.00000000e+00  7.85000000e-06  3.30000000e+00  7.85000000e-06 -2.00000000e-02 
 7.95000000e-06  3.30000000e+00  7.95000000e-06  3.30000000e+00  7.95000000e-06  1.00000000e+00  7.95000000e-06  3.30000000e+00  7.95000000e-06 -2.00000000e-02 
 8.05000000e-06  3.30000000e+00  8.05000000e-06  3.30000000e+00  8.05000000e-06  1.00000000e+00  8.05000000e-06  3.30000000e+00  8.05000000e-06 -2.00000000e-02 
 8.15000000e-06  3.30000000e+00  8.15000000e-06  3.30000000e+00  8.15000000e-06  1.00000000e+00  8.15000000e-06  3.30000000e+00  8.15000000e-06 -2.00000000e-02 
 8.25000000e-06  3.30000000e+00  8.25000000e-06  3.30000000e+00  8.25000000e-06  1.00000000e+00  8.25000000e-06  3.30000000e+00  8.25000000e-06 -2.00000000e-02 
 8.35000000e-06  3.30000000e+00  8.35000000e-06  3.30000000e+00  8.35000000e-06  1.00000000e+00  8.35000000e-06  3.30000000e+00  8.35000000e-06 -2.00000000e-02 
 8.45000000e-06  3.30000000e+00  8.45000000e-06  3.30000000e+00  8.45000000e-06  1.00000000e+00  8.45000000e-06  3.30000000e+00  8.45000000e-06 -2.00000000e-02 
 8.55000000e-06  3.30000000e+00  8.55000000e-06  3.30000000e+00  8.55000000e-06  1.00000000e+00  8.55000000e-06  3.30000000e+00  8.55000000e-06 -2.00000000e-02 
 8.65000000e-06  3.30000000e+00  8.65000000e-06  3.30000000e+00  8.65000000e-06  1.00000000e+00  8.65000000e-06  3.30000000e+00  8.65000000e-06 -2.00000000e-02 
 8.75000000e-06  3.30000000e+00  8.75000000e-06  3.30000000e+00  8.75000000e-06  1.00000000e+00  8.75000000e-06  3.30000000e+00  8.75000000e-06 -2.00000000e-02 
 8.85000000e-06  3.30000000e+00  8.85000000e-06  3.30000000e+00  8.85000000e-06  1.00000000e+00  8.85000000e-06  3.30000000e+00  8.85000000e-06 -2.00000000e-02 
 8.95000000e-06  3.30000000e+00  8.95000000e-06  3.30000000e+00  8.95000000e-06  1.00000000e+00  8.95000000e-06  3.30000000e+00  8.95000000e-06 -2.00000000e-02 
 9.05000000e-06  3.30000000e+00  9.05000000e-06  3.30000000e+00  9.05000000e-06  1.00000000e+00  9.05000000e-06  3.30000000e+00  9.05000000e-06 -2.00000000e-02 
 9.15000000e-06  3.30000000e+00  9.15000000e-06  3.30000000e+00  9.15000000e-06  1.00000000e+00  9.15000000e-06  3.30000000e+00  9.15000000e-06 -2.00000000e-02 
 9.25000000e-06  3.30000000e+00  9.25000000e-06  3.30000000e+00  9.25000000e-06  1.00000000e+00  9.25000000e-06  3.30000000e+00  9.25000000e-06 -2.00000000e-02 
 9.35000000e-06  3.30000000e+00  9.35000000e-06  3.30000000e+00  9.35000000e-06  1.00000000e+00  9.35000000e-06  3.30000000e+00  9.35000000e-06 -2.00000000e-02 
 9.45000000e-06  3.30000000e+00  9.45000000e-06  3.30000000e+00  9.45000000e-06  1.00000000e+00  9.45000000e-06  3.30000000e+00  9.45000000e-06 -2.00000000e-02 
 9.55000000e-06  3.30000000e+00  9.55000000e-06  3.30000000e+00  9.55000000e-06  1.00000000e+00  9.55000000e-06  3.30000000e+00  9.55000000e-06 -2.00000000e-02 
 9.65000000e-06  3.30000000e+00  9.65000000e-06  3.30000000e+00  9.65000000e-06  1.00000000e+00  9.65000000e-06  3.30000000e+00  9.65000000e-06 -2.00000000e-02 
 9.75000000e-06  3.30000000e+00  9.75000000e-06  3.30000000e+00  9.75000000e-06  1.00000000e+00  9.75000000e-06  3.30000000e+00  9.75000000e-06 -2.00000000e-02 
 9.85000000e-06  3.30000000e+00  9.85000000e-06  3.30000000e+00  9.85000000e-06  1.00000000e+00  9.85000000e-06  3.30000000e+00  9.85000000e-06 -2.00000000e-02 
 9.95000000e-06  3.30000000e+00  9.95000000e-06  3.30000000e+00  9.95000000e-06  1.00000000e+00  9.95000000e-06  3.30000000e+00  9.95000000e-06 -2.00000000e-02 
 1.00000000e-05  3.30000000e+00  1.00000000e-05  3.30000000e+00  1.00000000e-05  1.00000000e+00  1.00000000e-05  3.30000000e+00  1.00000000e-05 -2.00000000e-02 
